!Keysight Technologies,N5227B,US57180442,A.13.50.07
!Date: Wednesday, August 26, 2020 11:58:54
!Correction: S11(Off) 
!S21(Off) 
!S12(Off) 
!S22(Off) 
!S2P File: Measurements: S11, S21, S12, S22:
# Hz S  dB   R 50
400000000 -200 45 -20.181864 152.81148 -200 45 -200 45
410000000 -200 45 -14.423699 -92.204941 -200 45 -200 45
420000000 -200 45 -9.6613598 31.879971 -200 45 -200 45
430000000 -200 45 -6.1996713 142.59949 -200 45 -200 45
440000000 -200 45 -3.743084 -97.928932 -200 45 -200 45
450000000 -200 45 -1.7604731 20.659607 -200 45 -200 45
460000000 -200 45 -1.041602 140.23271 -200 45 -200 45
470000000 -200 45 -0.5497641 -101.74998 -200 45 -200 45
480000000 -200 45 -0.20586285 16.113092 -200 45 -200 45
490000000 -200 45 0.051393732 135.45837 -200 45 -200 45
500000000 -200 45 -0.038889475 -103.44008 -200 45 -200 45
510000000 -200 45 -0.65551245 19.480669 -200 45 -200 45
520000000 -200 45 -1.574066 146.62343 -200 45 -200 45
530000000 -200 45 -2.2254901 -85.398834 -200 45 -200 45
540000000 -200 45 -2.7330256 43.703575 -200 45 -200 45
550000000 -200 45 -2.7473121 171.21014 -200 45 -200 45
560000000 -200 45 -3.1516755 -61.826847 -200 45 -200 45
570000000 -200 45 -3.3591011 68.354073 -200 45 -200 45
580000000 -200 45 -3.6160669 -161.52348 -200 45 -200 45
590000000 -200 45 -4.2927933 -31.869308 -200 45 -200 45
600000000 -200 45 -4.8892441 96.283104 -200 45 -200 45
610000000 -200 45 -5.207325 -135.36877 -200 45 -200 45
620000000 -200 45 -5.4431696 -2.5046444 -200 45 -200 45
630000000 -200 45 -5.6755471 131.05946 -200 45 -200 45
640000000 -200 45 -6.4002242 -98.774551 -200 45 -200 45
650000000 -200 45 -7.2750401 30.324408 -200 45 -200 45
660000000 -200 45 -7.9958315 162.95982 -200 45 -200 45
670000000 -200 45 -8.2986031 -59.501625 -200 45 -200 45
680000000 -200 45 -8.1180048 80.070488 -200 45 -200 45
690000000 -200 45 -8.1243124 -145.47351 -200 45 -200 45
700000000 -200 45 -8.185441 -11.969646 -200 45 -200 45
710000000 -200 45 -7.8060369 120.10332 -200 45 -200 45
720000000 -200 45 -7.0806508 -105.89574 -200 45 -200 45
730000000 -200 45 -6.8229795 26.798973 -200 45 -200 45
740000000 -200 45 -6.9064569 162.02151 -200 45 -200 45
750000000 -200 45 -6.4724164 -67.158463 -200 45 -200 45
760000000 -200 45 -6.061708 63.219643 -200 45 -200 45
770000000 -200 45 -5.4417319 -165.69174 -200 45 -200 45
780000000 -200 45 -5.2776327 -34.369652 -200 45 -200 45
790000000 -200 45 -5.1613598 97.306274 -200 45 -200 45
800000000 -200 45 -4.9389677 -131.74429 -200 45 -200 45
810000000 -200 45 -4.6543021 -2.4727809 -200 45 -200 45
820000000 -200 45 -4.6473131 127.11768 -200 45 -200 45
830000000 -200 45 -4.5403681 -101.00978 -200 45 -200 45
840000000 -200 45 -4.2896414 30.819361 -200 45 -200 45
850000000 -200 45 -4.123271 160.79631 -200 45 -200 45
860000000 -200 45 -4.0716238 -68.692146 -200 45 -200 45
870000000 -200 45 -4.0518818 61.698425 -200 45 -200 45
880000000 -200 45 -3.9101117 -167.56561 -200 45 -200 45
890000000 -200 45 -3.7023041 -38.938023 -200 45 -200 45
900000000 -200 45 -3.6897044 91.020355 -200 45 -200 45
910000000 -200 45 -3.9506688 -138.4837 -200 45 -200 45
920000000 -200 45 -4.3887138 -6.2461014 -200 45 -200 45
930000000 -200 45 -4.3129044 123.66975 -200 45 -200 45
940000000 -200 45 -4.2962308 -106.15491 -200 45 -200 45
950000000 -200 45 -4.295372 25.94352 -200 45 -200 45
960000000 -200 45 -4.4411426 158.60056 -200 45 -200 45
970000000 -200 45 -4.6855631 -71.064392 -200 45 -200 45
980000000 -200 45 -5.0108953 59.813564 -200 45 -200 45
990000000 -200 45 -4.845458 -169.00836 -200 45 -200 45
1000000000 -200 45 -4.7190952 -37.062977 -200 45 -200 45
1010000000 -200 45 -4.9647002 95.360771 -200 45 -200 45
1020000000 -200 45 -5.5226593 -132.26572 -200 45 -200 45
1030000000 -200 45 -5.7826657 -0.1604066 -200 45 -200 45
1040000000 -200 45 -5.5575585 132.10707 -200 45 -200 45
1050000000 -200 45 -5.3377924 -94.853279 -200 45 -200 45
1060000000 -200 45 -5.2360663 39.72353 -200 45 -200 45
1070000000 -200 45 -5.3606973 170.52763 -200 45 -200 45
1080000000 -200 45 -5.633007 -59.033367 -200 45 -200 45
1090000000 -200 45 -5.6097403 73.402977 -200 45 -200 45
1100000000 -200 45 -5.1827593 -152.16174 -200 45 -200 45
1110000000 -200 45 -4.9779506 -19.097895 -200 45 -200 45
1120000000 -200 45 -4.9479055 113.78701 -200 45 -200 45
1130000000 -200 45 -4.8239241 -116.36222 -200 45 -200 45
1140000000 -200 45 -4.7219796 14.048778 -200 45 -200 45
1150000000 -200 45 -4.430995 145.85196 -200 45 -200 45
1160000000 -200 45 -4.2995462 -81.849998 -200 45 -200 45
1170000000 -200 45 -4.2631679 49.698692 -200 45 -200 45
1180000000 -200 45 -4.2177896 179.98949 -200 45 -200 45
1190000000 -200 45 -4.1448903 -50.033798 -200 45 -200 45
1200000000 -200 45 -3.9692454 80.737778 -200 45 -200 45
1210000000 -200 45 -3.9681809 -148.04431 -200 45 -200 45
1220000000 -200 45 -3.9995568 -17.749451 -200 45 -200 45
1230000000 -200 45 -4.1612501 112.83777 -200 45 -200 45
1240000000 -200 45 -4.18016 -116.59121 -200 45 -200 45
1250000000 -200 45 -4.3690696 14.486391 -200 45 -200 45
1260000000 -200 45 -4.469583 146.01868 -200 45 -200 45
1270000000 -200 45 -4.6138873 -82.94136 -200 45 -200 45
1280000000 -200 45 -4.6538229 48.592152 -200 45 -200 45
1290000000 -200 45 -4.7720556 179.70752 -200 45 -200 45
1300000000 -200 45 -4.9121175 -48.548103 -200 45 -200 45
1310000000 -200 45 -5.0844498 82.071075 -200 45 -200 45
1320000000 -200 45 -5.3236656 -146.70856 -200 45 -200 45
1330000000 -200 45 -5.3970032 -14.992947 -200 45 -200 45
1340000000 -200 45 -5.5830235 117.0507 -200 45 -200 45
1350000000 -200 45 -5.8479233 -110.71336 -200 45 -200 45
1360000000 -200 45 -6.1697779 21.263191 -200 45 -200 45
1370000000 -200 45 -6.2944889 153.00748 -200 45 -200 45
1380000000 -200 45 -6.3731828 -74.683128 -200 45 -200 45
1390000000 -200 45 -6.5245585 59.076412 -200 45 -200 45
1400000000 -200 45 -6.7901082 -168.24434 -200 45 -200 45
1410000000 -200 45 -7.1081228 -35.369316 -200 45 -200 45
1420000000 -200 45 -7.0277476 96.825104 -200 45 -200 45
1430000000 -200 45 -6.9930949 -130.25551 -200 45 -200 45
1440000000 -200 45 -7.092495 3.3722694 -200 45 -200 45
1450000000 -200 45 -7.2735186 137.30374 -200 45 -200 45
1460000000 -200 45 -7.3740211 -89.844505 -200 45 -200 45
1470000000 -200 45 -7.2569227 42.118725 -200 45 -200 45
1480000000 -200 45 -7.0663218 174.90273 -200 45 -200 45
1490000000 -200 45 -6.9662261 -51.178032 -200 45 -200 45
1500000000 -200 45 -7.0274339 82.777954 -200 45 -200 45
1510000000 -200 45 -6.9265003 -146.19809 -200 45 -200 45
1520000000 -200 45 -6.9689064 -14.72801 -200 45 -200 45
1530000000 -200 45 -6.5224724 118.79348 -200 45 -200 45
1540000000 -200 45 -6.3505054 -108.76454 -200 45 -200 45
1550000000 -200 45 -6.3649597 22.677839 -200 45 -200 45
1560000000 -200 45 -6.4499021 153.44133 -200 45 -200 45
1570000000 -200 45 -6.3606753 -75.662399 -200 45 -200 45
1580000000 -200 45 -6.3395829 56.137264 -200 45 -200 45
1590000000 -200 45 -6.282763 -170.80165 -200 45 -200 45
1600000000 -200 45 -6.3601589 -39.385761 -200 45 -200 45
1610000000 -200 45 -6.5032401 92.32045 -200 45 -200 45
1620000000 -200 45 -6.3841324 -136.08211 -200 45 -200 45
1630000000 -200 45 -6.2645202 -4.1415935 -200 45 -200 45
1640000000 -200 45 -6.2984753 127.85748 -200 45 -200 45
1650000000 -200 45 -6.4365621 -100.77753 -200 45 -200 45
1660000000 -200 45 -6.5625563 30.589388 -200 45 -200 45
1670000000 -200 45 -6.5101843 162.43794 -200 45 -200 45
1680000000 -200 45 -6.613379 -64.91835 -200 45 -200 45
1690000000 -200 45 -6.723093 67.352364 -200 45 -200 45
1700000000 -200 45 -6.7949271 -160.25638 -200 45 -200 45
1710000000 -200 45 -6.5801644 -28.494555 -200 45 -200 45
1720000000 -200 45 -6.6120629 102.8882 -200 45 -200 45
1730000000 -200 45 -6.6915073 -125.58046 -200 45 -200 45
1740000000 -200 45 -6.9255791 6.3436012 -200 45 -200 45
1750000000 -200 45 -6.9483066 138.1275 -200 45 -200 45
1760000000 -200 45 -7.1163578 -89.929451 -200 45 -200 45
1770000000 -200 45 -7.0899372 43.727005 -200 45 -200 45
1780000000 -200 45 -7.1294065 176.32924 -200 45 -200 45
1790000000 -200 45 -7.1624289 -52.248848 -200 45 -200 45
1800000000 -200 45 -7.2144847 78.743172 -200 45 -200 45
1810000000 -200 45 -7.2456512 -148.7453 -200 45 -200 45
1820000000 -200 45 -7.3316174 -14.986818 -200 45 -200 45
1830000000 -200 45 -7.3840952 117.17039 -200 45 -200 45
1840000000 -200 45 -7.4942436 -111.15265 -200 45 -200 45
1850000000 -200 45 -7.3022552 20.578749 -200 45 -200 45
1860000000 -200 45 -7.2693672 152.69885 -200 45 -200 45
1870000000 -200 45 -7.479177 -75.068542 -200 45 -200 45
1880000000 -200 45 -7.7266049 58.690056 -200 45 -200 45
1890000000 -200 45 -7.5276814 -169.14203 -200 45 -200 45
1900000000 -200 45 -7.47542 -37.505363 -200 45 -200 45
1910000000 -200 45 -7.2455058 95.031876 -200 45 -200 45
1920000000 -200 45 -7.2337155 -132.71962 -200 45 -200 45
1930000000 -200 45 -7.3702464 -1.6658483 -200 45 -200 45
1940000000 -200 45 -7.5768409 130.02089 -200 45 -200 45
1950000000 -200 45 -7.3904185 -97.402313 -200 45 -200 45
1960000000 -200 45 -7.3093891 35.170708 -200 45 -200 45
1970000000 -200 45 -7.2423077 167.73929 -200 45 -200 45
1980000000 -200 45 -7.2038012 -61.15218 -200 45 -200 45
1990000000 -200 45 -7.0687323 69.121407 -200 45 -200 45
2000000000 -200 45 -7.1334772 -160.16313 -200 45 -200 45
2010000000 -200 45 -7.2048244 -28.955593 -200 45 -200 45
2020000000 -200 45 -7.3683796 102.20929 -200 45 -200 45
2030000000 -200 45 -7.5890746 -126.59274 -200 45 -200 45
2040000000 -200 45 -7.814043 5.6872373 -200 45 -200 45
2050000000 -200 45 -7.9008389 137.92795 -200 45 -200 45
2060000000 -200 45 -7.9688668 -89.550629 -200 45 -200 45
2070000000 -200 45 -8.0149269 42.00893 -200 45 -200 45
2080000000 -200 45 -8.2165098 173.64987 -200 45 -200 45
2090000000 -200 45 -8.3198109 -54.322781 -200 45 -200 45
2100000000 -200 45 -8.4961777 78.417938 -200 45 -200 45
2110000000 -200 45 -8.6254435 -149.47159 -200 45 -200 45
2120000000 -200 45 -8.8362436 -17.193739 -200 45 -200 45
2130000000 -200 45 -8.7875547 115.70573 -200 45 -200 45
2140000000 -200 45 -8.8444071 -111.90665 -200 45 -200 45
2150000000 -200 45 -8.9838181 20.183071 -200 45 -200 45
2160000000 -200 45 -9.1696434 152.04387 -200 45 -200 45
2170000000 -200 45 -9.241828 -75.843895 -200 45 -200 45
2180000000 -200 45 -9.3586836 56.946632 -200 45 -200 45
2190000000 -200 45 -9.5734377 -170.56305 -200 45 -200 45
2200000000 -200 45 -9.8585854 -37.043678 -200 45 -200 45
2210000000 -200 45 -9.9034853 95.989334 -200 45 -200 45
2220000000 -200 45 -9.9950867 -130.90961 -200 45 -200 45
2230000000 -200 45 -9.9382782 2.7023103 -200 45 -200 45
2240000000 -200 45 -9.8729916 136.95671 -200 45 -200 45
2250000000 -200 45 -9.8188238 -91.040474 -200 45 -200 45
2260000000 -200 45 -9.8225489 41.176903 -200 45 -200 45
2270000000 -200 45 -9.686511 173.50029 -200 45 -200 45
2280000000 -200 45 -9.5969877 -53.327267 -200 45 -200 45
2290000000 -200 45 -9.5203152 78.719231 -200 45 -200 45
2300000000 -200 45 -9.4897251 -149.34872 -200 45 -200 45
2310000000 -200 45 -9.3670273 -18.154034 -200 45 -200 45
2320000000 -200 45 -9.3703814 113.47513 -200 45 -200 45
2330000000 -200 45 -9.3637476 -114.91425 -200 45 -200 45
2340000000 -200 45 -9.422451 16.644093 -200 45 -200 45
2350000000 -200 45 -9.4611044 147.8519 -200 45 -200 45
2360000000 -200 45 -9.5363665 -80.398933 -200 45 -200 45
2370000000 -200 45 -9.6172571 51.178062 -200 45 -200 45
2380000000 -200 45 -9.7072067 -176.78551 -200 45 -200 45
2390000000 -200 45 -9.8558168 -45.339939 -200 45 -200 45
2400000000 -200 45 -9.9348497 86.778374 -200 45 -200 45
2410000000 -200 45 -10.033307 -141.48395 -200 45 -200 45
2420000000 -200 45 -10.134969 -8.7013264 -200 45 -200 45
2430000000 -200 45 -10.257942 122.93431 -200 45 -200 45
2440000000 -200 45 -10.450827 -105.09265 -200 45 -200 45
2450000000 -200 45 -10.517538 27.034788 -200 45 -200 45
2460000000 -200 45 -10.575869 159.82216 -200 45 -200 45
2470000000 -200 45 -10.753618 -68.579628 -200 45 -200 45
2480000000 -200 45 -11.046906 63.830181 -200 45 -200 45
2490000000 -200 45 -11.222344 -163.61513 -200 45 -200 45
2500000000 -200 45 -11.241778 -30.042048 -200 45 -200 45
2510000000 -200 45 -11.270914 102.79623 -200 45 -200 45
2520000000 -200 45 -11.311914 -123.92213 -200 45 -200 45
2530000000 -200 45 -11.260824 7.780798 -200 45 -200 45
2540000000 -200 45 -11.321226 139.04086 -200 45 -200 45
2550000000 -200 45 -11.496082 -89.07373 -200 45 -200 45
2560000000 -200 45 -11.70369 44.447643 -200 45 -200 45
2570000000 -200 45 -11.917523 177.70949 -200 45 -200 45
2580000000 -200 45 -11.991885 -48.343609 -200 45 -200 45
2590000000 -200 45 -11.86275 85.115303 -200 45 -200 45
2600000000 -200 45 -11.583493 -141.56641 -200 45 -200 45
2610000000 -200 45 -11.460866 -10.119406 -200 45 -200 45
2620000000 -200 45 -11.477888 121.92001 -200 45 -200 45
2630000000 -200 45 -11.47813 -106.8978 -200 45 -200 45
2640000000 -200 45 -11.427676 24.758789 -200 45 -200 45
2650000000 -200 45 -11.56575 155.935 -200 45 -200 45
2660000000 -200 45 -11.755812 -71.160187 -200 45 -200 45
2670000000 -200 45 -11.869342 60.95681 -200 45 -200 45
2680000000 -200 45 -11.881974 -166.72171 -200 45 -200 45
2690000000 -200 45 -11.976885 -34.595501 -200 45 -200 45
2700000000 -200 45 -11.970441 98.548523 -200 45 -200 45
2710000000 -200 45 -11.973612 -129.64944 -200 45 -200 45
2720000000 -200 45 -11.947836 2.0191498 -200 45 -200 45
2730000000 -200 45 -12.065155 132.91197 -200 45 -200 45
2740000000 -200 45 -12.211684 -94.637436 -200 45 -200 45
2750000000 -200 45 -12.33642 36.974606 -200 45 -200 45
2760000000 -200 45 -12.584488 169.24899 -200 45 -200 45
2770000000 -200 45 -12.778185 -58.44994 -200 45 -200 45
2780000000 -200 45 -12.885936 74.533188 -200 45 -200 45
2790000000 -200 45 -12.979568 -152.65388 -200 45 -200 45
2800000000 -200 45 -13.099977 -19.83079 -200 45 -200 45
2810000000 -200 45 -13.278535 112.66473 -200 45 -200 45
2820000000 -200 45 -13.265185 -114.17056 -200 45 -200 45
2830000000 -200 45 -13.2944 18.391249 -200 45 -200 45
2840000000 -200 45 -13.340925 151.75807 -200 45 -200 45
2850000000 -200 45 -13.376494 -75.707863 -200 45 -200 45
2860000000 -200 45 -13.318196 56.722824 -200 45 -200 45
2870000000 -200 45 -13.270541 -171.32336 -200 45 -200 45
2880000000 -200 45 -13.208799 -39.431541 -200 45 -200 45
2890000000 -200 45 -13.329108 91.91317 -200 45 -200 45
2900000000 -200 45 -13.502684 -135.43848 -200 45 -200 45
2910000000 -200 45 -13.552782 -3.3402503 -200 45 -200 45
2920000000 -200 45 -13.551971 128.47318 -200 45 -200 45
2930000000 -200 45 -13.690903 -99.459587 -200 45 -200 45
2940000000 -200 45 -13.772242 33.804409 -200 45 -200 45
2950000000 -200 45 -13.757404 165.71671 -200 45 -200 45
2960000000 -200 45 -13.820327 -63.198784 -200 45 -200 45
2970000000 -200 45 -13.982207 68.22673 -200 45 -200 45
2980000000 -200 45 -14.19007 -159.21915 -200 45 -200 45
2990000000 -200 45 -14.387552 -26.77239 -200 45 -200 45
3000000000 -200 45 -14.571377 105.68591 -200 45 -200 45
3010000000 -200 45 -14.812255 -121.29729 -200 45 -200 45
3020000000 -200 45 -14.843292 12.019203 -200 45 -200 45
3030000000 -200 45 -14.923944 144.36449 -200 45 -200 45
3040000000 -200 45 -14.975924 -82.697884 -200 45 -200 45
3050000000 -200 45 -15.092977 49.753742 -200 45 -200 45
3060000000 -200 45 -15.22117 -177.67014 -200 45 -200 45
3070000000 -200 45 -15.289624 -44.901596 -200 45 -200 45
3080000000 -200 45 -15.380272 87.63073 -200 45 -200 45
3090000000 -200 45 -15.543701 -139.62721 -200 45 -200 45
3100000000 -200 45 -15.627422 -6.6564431 -200 45 -200 45
3110000000 -200 45 -15.717981 126.11964 -200 45 -200 45
3120000000 -200 45 -15.766021 -100.49409 -200 45 -200 45
3130000000 -200 45 -15.766232 32.127625 -200 45 -200 45
3140000000 -200 45 -15.814903 164.94847 -200 45 -200 45
3150000000 -200 45 -15.736688 -62.411259 -200 45 -200 45
3160000000 -200 45 -15.81838 69.119286 -200 45 -200 45
3170000000 -200 45 -15.906737 -157.68152 -200 45 -200 45
3180000000 -200 45 -15.786909 -25.886927 -200 45 -200 45
3190000000 -200 45 -15.953752 105.96076 -200 45 -200 45
3200000000 -200 45 -15.960625 -122.04897 -200 45 -200 45
3210000000 -200 45 -16.153877 9.4903526 -200 45 -200 45
3220000000 -200 45 -16.331097 142.27264 -200 45 -200 45
3230000000 -200 45 -16.509928 -84.634125 -200 45 -200 45
3240000000 -200 45 -16.5847 47.662884 -200 45 -200 45
3250000000 -200 45 -16.751154 -179.68652 -200 45 -200 45
3260000000 -200 45 -16.812014 -46.349663 -200 45 -200 45
3270000000 -200 45 -16.904928 86.607414 -200 45 -200 45
3280000000 -200 45 -16.934132 -140.98244 -200 45 -200 45
3290000000 -200 45 -17.111221 -8.6061192 -200 45 -200 45
3300000000 -200 45 -17.142935 124.30703 -200 45 -200 45
3310000000 -200 45 -17.275179 -103.70881 -200 45 -200 45
3320000000 -200 45 -17.517063 29.120321 -200 45 -200 45
3330000000 -200 45 -17.718233 163.0155 -200 45 -200 45
3340000000 -200 45 -17.898855 -63.436298 -200 45 -200 45
3350000000 -200 45 -17.954121 70.977898 -200 45 -200 45
3360000000 -200 45 -17.805174 -154.97647 -200 45 -200 45
3370000000 -200 45 -17.655943 -21.315687 -200 45 -200 45
3380000000 -200 45 -17.498819 110.76557 -200 45 -200 45
3390000000 -200 45 -17.487041 -117.1962 -200 45 -200 45
3400000000 -200 45 -17.465599 14.931118 -200 45 -200 45
3410000000 -200 45 -17.565161 147.577 -200 45 -200 45
3420000000 -200 45 -17.597662 -79.555031 -200 45 -200 45
3430000000 -200 45 -17.550806 53.649612 -200 45 -200 45
3440000000 -200 45 -17.396412 -173.91739 -200 45 -200 45
3450000000 -200 45 -17.324419 -42.135555 -200 45 -200 45
3460000000 -200 45 -17.254501 89.399361 -200 45 -200 45
3470000000 -200 45 -17.255562 -139.14467 -200 45 -200 45
3480000000 -200 45 -17.272041 -7.899663 -200 45 -200 45
3490000000 -200 45 -17.416576 123.06302 -200 45 -200 45
3500000000 -200 45 -17.548426 -104.97718 -200 45 -200 45
3510000000 -200 45 -17.671484 26.697863 -200 45 -200 45
3520000000 -200 45 -17.948635 158.37276 -200 45 -200 45
3530000000 -200 45 -18.050812 -69.364815 -200 45 -200 45
3540000000 -200 45 -18.198895 62.60651 -200 45 -200 45
3550000000 -200 45 -18.402393 -164.73334 -200 45 -200 45
3560000000 -200 45 -18.543562 -32.999119 -200 45 -200 45
3570000000 -200 45 -18.728914 98.825493 -200 45 -200 45
3580000000 -200 45 -18.938963 -129.01019 -200 45 -200 45
3590000000 -200 45 -19.183182 3.658792 -200 45 -200 45
3600000000 -200 45 -19.400579 135.82065 -200 45 -200 45
3610000000 -200 45 -19.727278 -91.667313 -200 45 -200 45
3620000000 -200 45 -19.944242 41.101604 -200 45 -200 45
3630000000 -200 45 -20.26495 173.73492 -200 45 -200 45
3640000000 -200 45 -20.477755 -52.16658 -200 45 -200 45
3650000000 -200 45 -20.717358 81.531181 -200 45 -200 45
3660000000 -200 45 -20.894909 -145.03545 -200 45 -200 45
3670000000 -200 45 -21.033434 -11.936538 -200 45 -200 45
3680000000 -200 45 -21.109268 121.52606 -200 45 -200 45
3690000000 -200 45 -21.327408 -104.70493 -200 45 -200 45
3700000000 -200 45 -21.475365 29.225201 -200 45 -200 45
3710000000 -200 45 -21.492062 162.23308 -200 45 -200 45
3720000000 -200 45 -21.633324 -64.767586 -200 45 -200 45
3730000000 -200 45 -21.736132 69.273613 -200 45 -200 45
3740000000 -200 45 -21.822309 -157.16031 -200 45 -200 45
3750000000 -200 45 -21.919094 -24.13616 -200 45 -200 45
3760000000 -200 45 -22.023397 109.02988 -200 45 -200 45
3770000000 -200 45 -22.103025 -117.36773 -200 45 -200 45
3780000000 -200 45 -22.152565 16.266502 -200 45 -200 45
3790000000 -200 45 -22.206093 150.17969 -200 45 -200 45
3800000000 -200 45 -22.251436 -76.916016 -200 45 -200 45
3810000000 -200 45 -22.422201 56.615372 -200 45 -200 45
3820000000 -200 45 -22.324854 -168.82706 -200 45 -200 45
3830000000 -200 45 -22.276426 -35.665966 -200 45 -200 45
3840000000 -200 45 -22.373266 97.673347 -200 45 -200 45
3850000000 -200 45 -22.340309 -129.26505 -200 45 -200 45
