!Keysight Technologies,N5227B,US57180442,A.13.50.07
!Date: Wednesday, August 26, 2020 12:05:24
!Correction: S11(Off) 
!S41(Off) 
!S14(Off) 
!S44(Off) 
!S2P File: Measurements: S11, S41, S14, S44:
# Hz S  dB   R 50
400000000 -200 45 -16.405411 -47.374531 -200 45 -200 45
410000000 -200 45 -11.249708 79.943771 -200 45 -200 45
420000000 -200 45 -7.7387815 -162.56477 -200 45 -200 45
430000000 -200 45 -5.3601842 -52.373569 -200 45 -200 45
440000000 -200 45 -4.0245752 69.681412 -200 45 -200 45
450000000 -200 45 -2.3085282 -171.09337 -200 45 -200 45
460000000 -200 45 -2.3590121 -53.787388 -200 45 -200 45
470000000 -200 45 -2.6051865 65.510284 -200 45 -200 45
480000000 -200 45 -2.623816 -175.31998 -200 45 -200 45
490000000 -200 45 -2.9152384 -56.145523 -200 45 -200 45
500000000 -200 45 -4.008513 62.407089 -200 45 -200 45
510000000 -200 45 -6.2144766 -175.36703 -200 45 -200 45
520000000 -200 45 -9.6085529 -44.315983 -200 45 -200 45
530000000 -200 45 -13.024549 103.55524 -200 45 -200 45
540000000 -200 45 -12.641567 -94.882057 -200 45 -200 45
550000000 -200 45 -9.9745951 44.737682 -200 45 -200 45
560000000 -200 45 -8.5750103 177.58954 -200 45 -200 45
570000000 -200 45 -6.7563081 -50.120289 -200 45 -200 45
580000000 -200 45 -5.4041724 76.935692 -200 45 -200 45
590000000 -200 45 -5.0081282 -158.28008 -200 45 -200 45
600000000 -200 45 -5.0541563 -35.14687 -200 45 -200 45
610000000 -200 45 -4.9900599 89.134827 -200 45 -200 45
620000000 -200 45 -5.0317464 -142.21387 -200 45 -200 45
630000000 -200 45 -5.3406639 -11.141584 -200 45 -200 45
640000000 -200 45 -6.1938033 117.82359 -200 45 -200 45
650000000 -200 45 -7.1834784 -113.33431 -200 45 -200 45
660000000 -200 45 -7.8662181 18.961866 -200 45 -200 45
670000000 -200 45 -8.1622953 155.6552 -200 45 -200 45
680000000 -200 45 -8.1587296 -64.336601 -200 45 -200 45
690000000 -200 45 -8.2854853 71.270866 -200 45 -200 45
700000000 -200 45 -8.3810949 -153.96535 -200 45 -200 45
710000000 -200 45 -7.8973804 -20.894857 -200 45 -200 45
720000000 -200 45 -6.9908643 113.57734 -200 45 -200 45
730000000 -200 45 -6.521091 -112.79689 -200 45 -200 45
740000000 -200 45 -6.3079586 22.365362 -200 45 -200 45
750000000 -200 45 -5.8232074 151.94928 -200 45 -200 45
760000000 -200 45 -5.3671942 -77.821014 -200 45 -200 45
770000000 -200 45 -4.5787249 53.404129 -200 45 -200 45
780000000 -200 45 -4.1900544 -175.62141 -200 45 -200 45
790000000 -200 45 -3.9864702 -44.873966 -200 45 -200 45
800000000 -200 45 -3.7819016 85.616974 -200 45 -200 45
810000000 -200 45 -3.4109306 -145.38509 -200 45 -200 45
820000000 -200 45 -3.3150959 -16.361223 -200 45 -200 45
830000000 -200 45 -3.1519644 115.10632 -200 45 -200 45
840000000 -200 45 -2.8229969 -113.78518 -200 45 -200 45
850000000 -200 45 -2.5909681 14.805 -200 45 -200 45
860000000 -200 45 -2.5343554 143.23605 -200 45 -200 45
870000000 -200 45 -2.7623708 -88.400269 -200 45 -200 45
880000000 -200 45 -2.983825 42.010563 -200 45 -200 45
890000000 -200 45 -3.0061746 170.73253 -200 45 -200 45
900000000 -200 45 -3.2523901 -59.56707 -200 45 -200 45
910000000 -200 45 -3.8018541 71.470413 -200 45 -200 45
920000000 -200 45 -4.4207416 -154.77791 -200 45 -200 45
930000000 -200 45 -4.3894148 -23.756613 -200 45 -200 45
940000000 -200 45 -4.5147648 106.68224 -200 45 -200 45
950000000 -200 45 -4.7517424 -119.93229 -200 45 -200 45
960000000 -200 45 -5.0047007 14.949773 -200 45 -200 45
970000000 -200 45 -5.252811 147.42708 -200 45 -200 45
980000000 -200 45 -5.5943546 -79.642433 -200 45 -200 45
990000000 -200 45 -5.3669615 54.051434 -200 45 -200 45
1000000000 -200 45 -4.9613404 -172.69363 -200 45 -200 45
1010000000 -200 45 -4.8465247 -39.738762 -200 45 -200 45
1020000000 -200 45 -5.2232718 92.246254 -200 45 -200 45
1030000000 -200 45 -5.4271245 -135.70445 -200 45 -200 45
1040000000 -200 45 -5.1152229 -3.3874323 -200 45 -200 45
1050000000 -200 45 -4.8120894 129.62779 -200 45 -200 45
1060000000 -200 45 -4.6512547 -95.49456 -200 45 -200 45
1070000000 -200 45 -4.6978579 36.086651 -200 45 -200 45
1080000000 -200 45 -4.8151989 166.93005 -200 45 -200 45
1090000000 -200 45 -4.6940222 -61.02512 -200 45 -200 45
1100000000 -200 45 -4.2346463 73.288918 -200 45 -200 45
1110000000 -200 45 -3.9265499 -153.44637 -200 45 -200 45
1120000000 -200 45 -3.7490463 -20.992159 -200 45 -200 45
1130000000 -200 45 -3.5497119 107.81554 -200 45 -200 45
1140000000 -200 45 -3.472044 -123.06649 -200 45 -200 45
1150000000 -200 45 -3.2603252 7.8644371 -200 45 -200 45
1160000000 -200 45 -3.2105384 139.4458 -200 45 -200 45
1170000000 -200 45 -3.2696459 -89.70491 -200 45 -200 45
1180000000 -200 45 -3.3205476 39.995216 -200 45 -200 45
1190000000 -200 45 -3.3795364 169.54791 -200 45 -200 45
1200000000 -200 45 -3.362412 -59.521957 -200 45 -200 45
1210000000 -200 45 -3.4726968 72.304039 -200 45 -200 45
1220000000 -200 45 -3.5926294 -156.86627 -200 45 -200 45
1230000000 -200 45 -3.8395076 -26.043394 -200 45 -200 45
1240000000 -200 45 -3.9510818 104.89216 -200 45 -200 45
1250000000 -200 45 -4.2334156 -123.47798 -200 45 -200 45
1260000000 -200 45 -4.4266839 8.4601545 -200 45 -200 45
1270000000 -200 45 -4.6960678 139.82288 -200 45 -200 45
1280000000 -200 45 -4.9104481 -88.047447 -200 45 -200 45
1290000000 -200 45 -5.2129135 43.988506 -200 45 -200 45
1300000000 -200 45 -5.5198054 176.86324 -200 45 -200 45
1310000000 -200 45 -5.8053112 -51.465385 -200 45 -200 45
1320000000 -200 45 -6.1272221 80.872917 -200 45 -200 45
1330000000 -200 45 -6.2450914 -146.08408 -200 45 -200 45
1340000000 -200 45 -6.467114 -12.66336 -200 45 -200 45
1350000000 -200 45 -6.7500038 121.07249 -200 45 -200 45
1360000000 -200 45 -7.0431209 -105.54597 -200 45 -200 45
1370000000 -200 45 -7.0826368 27.476274 -200 45 -200 45
1380000000 -200 45 -7.0386057 161.04439 -200 45 -200 45
1390000000 -200 45 -7.0530853 -64.165161 -200 45 -200 45
1400000000 -200 45 -7.191082 69.326118 -200 45 -200 45
1410000000 -200 45 -7.374845 -157.17807 -200 45 -200 45
1420000000 -200 45 -7.1236892 -24.349525 -200 45 -200 45
1430000000 -200 45 -6.9051337 108.90756 -200 45 -200 45
1440000000 -200 45 -6.8687096 -117.37067 -200 45 -200 45
1450000000 -200 45 -6.9728403 16.602833 -200 45 -200 45
1460000000 -200 45 -6.9708571 149.71608 -200 45 -200 45
1470000000 -200 45 -6.7053857 -78.186569 -200 45 -200 45
1480000000 -200 45 -6.3767495 54.093307 -200 45 -200 45
1490000000 -200 45 -6.2587943 -172.97874 -200 45 -200 45
1500000000 -200 45 -6.3914714 -39.776356 -200 45 -200 45
1510000000 -200 45 -6.3556008 90.93969 -200 45 -200 45
1520000000 -200 45 -6.4212046 -137.95468 -200 45 -200 45
1530000000 -200 45 -6.0666227 -4.7299628 -200 45 -200 45
1540000000 -200 45 -6.0036483 127.6563 -200 45 -200 45
1550000000 -200 45 -6.0884562 -100.85629 -200 45 -200 45
1560000000 -200 45 -6.2283912 30.001968 -200 45 -200 45
1570000000 -200 45 -6.2144942 161.19879 -200 45 -200 45
1580000000 -200 45 -6.2731938 -66.535332 -200 45 -200 45
1590000000 -200 45 -6.2788062 67.010735 -200 45 -200 45
1600000000 -200 45 -6.3653088 -161.25089 -200 45 -200 45
1610000000 -200 45 -6.5471811 -29.348907 -200 45 -200 45
1620000000 -200 45 -6.5399847 102.70133 -200 45 -200 45
1630000000 -200 45 -6.544528 -124.4954 -200 45 -200 45
1640000000 -200 45 -6.6645985 8.5899658 -200 45 -200 45
1650000000 -200 45 -6.8274794 141.02351 -200 45 -200 45
1660000000 -200 45 -6.9625568 -86.535706 -200 45 -200 45
1670000000 -200 45 -6.9304543 46.530075 -200 45 -200 45
1680000000 -200 45 -7.0100989 -179.92996 -200 45 -200 45
1690000000 -200 45 -7.0775552 -47.25502 -200 45 -200 45
1700000000 -200 45 -7.1343307 85.657204 -200 45 -200 45
1710000000 -200 45 -6.8763366 -141.67433 -200 45 -200 45
1720000000 -200 45 -6.8247132 -9.7659264 -200 45 -200 45
1730000000 -200 45 -6.8532782 121.93459 -200 45 -200 45
1740000000 -200 45 -7.0611548 -105.88462 -200 45 -200 45
1750000000 -200 45 -7.0237799 26.517563 -200 45 -200 45
1760000000 -200 45 -7.0987563 159.0004 -200 45 -200 45
1770000000 -200 45 -7.0234165 -67.051735 -200 45 -200 45
1780000000 -200 45 -7.0448632 65.8321 -200 45 -200 45
1790000000 -200 45 -7.0330439 -162.44682 -200 45 -200 45
1800000000 -200 45 -7.0385084 -31.090858 -200 45 -200 45
1810000000 -200 45 -7.0700259 101.61919 -200 45 -200 45
1820000000 -200 45 -7.2175612 -124.58408 -200 45 -200 45
1830000000 -200 45 -7.3156314 7.7703862 -200 45 -200 45
1840000000 -200 45 -7.4122782 139.76576 -200 45 -200 45
1850000000 -200 45 -7.1839876 -88.151833 -200 45 -200 45
1860000000 -200 45 -7.1068835 44.282875 -200 45 -200 45
1870000000 -200 45 -7.262538 176.49313 -200 45 -200 45
1880000000 -200 45 -7.4703498 -50.052742 -200 45 -200 45
1890000000 -200 45 -7.247663 81.857391 -200 45 -200 45
1900000000 -200 45 -7.2214112 -146.60443 -200 45 -200 45
1910000000 -200 45 -7.0640435 -13.886269 -200 45 -200 45
1920000000 -200 45 -7.1086531 118.40141 -200 45 -200 45
1930000000 -200 45 -7.3490868 -110.53727 -200 45 -200 45
1940000000 -200 45 -7.7215915 21.741873 -200 45 -200 45
1950000000 -200 45 -7.6877542 155.487 -200 45 -200 45
1960000000 -200 45 -7.6960931 -70.576218 -200 45 -200 45
1970000000 -200 45 -7.6541796 63.030426 -200 45 -200 45
1980000000 -200 45 -7.5910711 -164.78954 -200 45 -200 45
1990000000 -200 45 -7.4070921 -33.58754 -200 45 -200 45
2000000000 -200 45 -7.4650226 95.910583 -200 45 -200 45
2010000000 -200 45 -7.6366501 -132.43489 -200 45 -200 45
2020000000 -200 45 -7.8966036 -0.23426364 -200 45 -200 45
2030000000 -200 45 -8.1430492 132.67517 -200 45 -200 45
2040000000 -200 45 -8.334878 -93.536781 -200 45 -200 45
2050000000 -200 45 -8.42729 39.762558 -200 45 -200 45
2060000000 -200 45 -8.5057602 173.25298 -200 45 -200 45
2070000000 -200 45 -8.4776011 -54.307743 -200 45 -200 45
2080000000 -200 45 -8.5717373 77.855865 -200 45 -200 45
2090000000 -200 45 -8.6113234 -149.78027 -200 45 -200 45
2100000000 -200 45 -8.7316971 -17.008007 -200 45 -200 45
2110000000 -200 45 -8.7814913 114.69564 -200 45 -200 45
2120000000 -200 45 -8.8975391 -113.65816 -200 45 -200 45
2130000000 -200 45 -8.8201704 18.784782 -200 45 -200 45
2140000000 -200 45 -8.9092875 151.08948 -200 45 -200 45
2150000000 -200 45 -9.1049147 -76.587334 -200 45 -200 45
2160000000 -200 45 -9.3280363 55.510658 -200 45 -200 45
2170000000 -200 45 -9.4216232 -171.88559 -200 45 -200 45
2180000000 -200 45 -9.5857296 -38.444599 -200 45 -200 45
2190000000 -200 45 -9.8399563 94.841156 -200 45 -200 45
2200000000 -200 45 -10.146076 -131.13242 -200 45 -200 45
2210000000 -200 45 -10.21392 2.2203772 -200 45 -200 45
2220000000 -200 45 -10.345296 135.75996 -200 45 -200 45
2230000000 -200 45 -10.290265 -90.003189 -200 45 -200 45
2240000000 -200 45 -10.197006 44.661762 -200 45 -200 45
2250000000 -200 45 -10.073405 176.63809 -200 45 -200 45
2260000000 -200 45 -10.046908 -51.25201 -200 45 -200 45
2270000000 -200 45 -9.9096622 81.095917 -200 45 -200 45
2280000000 -200 45 -9.8837891 -146.02478 -200 45 -200 45
2290000000 -200 45 -9.9168472 -13.92175 -200 45 -200 45
2300000000 -200 45 -9.9599342 118.75944 -200 45 -200 45
2310000000 -200 45 -9.8440523 -109.30466 -200 45 -200 45
2320000000 -200 45 -9.8263016 22.591871 -200 45 -200 45
2330000000 -200 45 -9.7978497 153.8808 -200 45 -200 45
2340000000 -200 45 -9.8550653 -74.481575 -200 45 -200 45
2350000000 -200 45 -9.9149151 57.384422 -200 45 -200 45
2360000000 -200 45 -10.020914 -170.45197 -200 45 -200 45
2370000000 -200 45 -10.167764 -38.413578 -200 45 -200 45
2380000000 -200 45 -10.294895 94.305977 -200 45 -200 45
2390000000 -200 45 -10.426862 -133.49586 -200 45 -200 45
2400000000 -200 45 -10.48874 -0.64303869 -200 45 -200 45
2410000000 -200 45 -10.574118 132.36882 -200 45 -200 45
2420000000 -200 45 -10.64965 -93.461731 -200 45 -200 45
2430000000 -200 45 -10.7683 39.312351 -200 45 -200 45
2440000000 -200 45 -10.954121 172.16183 -200 45 -200 45
2450000000 -200 45 -10.963346 -55.260612 -200 45 -200 45
2460000000 -200 45 -10.995027 77.449875 -200 45 -200 45
2470000000 -200 45 -11.232674 -151.13828 -200 45 -200 45
2480000000 -200 45 -11.556669 -18.537268 -200 45 -200 45
2490000000 -200 45 -11.667042 114.23776 -200 45 -200 45
2500000000 -200 45 -11.608534 -112.00925 -200 45 -200 45
2510000000 -200 45 -11.648092 21.282356 -200 45 -200 45
2520000000 -200 45 -11.748989 155.20262 -200 45 -200 45
2530000000 -200 45 -11.751869 -72.570511 -200 45 -200 45
2540000000 -200 45 -11.836421 59.521484 -200 45 -200 45
2550000000 -200 45 -12.031544 -167.40738 -200 45 -200 45
2560000000 -200 45 -12.177878 -32.291927 -200 45 -200 45
2570000000 -200 45 -12.232211 101.77278 -200 45 -200 45
2580000000 -200 45 -12.229012 -124.5124 -200 45 -200 45
2590000000 -200 45 -12.099413 9.0845108 -200 45 -200 45
2600000000 -200 45 -11.76432 142.74953 -200 45 -200 45
2610000000 -200 45 -11.622642 -85.537964 -200 45 -200 45
2620000000 -200 45 -11.661567 46.721706 -200 45 -200 45
2630000000 -200 45 -11.681937 177.96754 -200 45 -200 45
2640000000 -200 45 -11.64634 -50.41346 -200 45 -200 45
2650000000 -200 45 -11.775901 80.677986 -200 45 -200 45
2660000000 -200 45 -11.967753 -146.674 -200 45 -200 45
2670000000 -200 45 -12.119036 -14.773569 -200 45 -200 45
2680000000 -200 45 -12.14521 117.91995 -200 45 -200 45
2690000000 -200 45 -12.272755 -109.36272 -200 45 -200 45
2700000000 -200 45 -12.327946 24.420929 -200 45 -200 45
2710000000 -200 45 -12.389137 156.83145 -200 45 -200 45
2720000000 -200 45 -12.404306 -70.793068 -200 45 -200 45
2730000000 -200 45 -12.521202 60.685181 -200 45 -200 45
2740000000 -200 45 -12.674027 -166.52411 -200 45 -200 45
2750000000 -200 45 -12.859661 -34.317314 -200 45 -200 45
2760000000 -200 45 -13.112722 98.706894 -200 45 -200 45
2770000000 -200 45 -13.281725 -129.02423 -200 45 -200 45
2780000000 -200 45 -13.413044 3.8572528 -200 45 -200 45
2790000000 -200 45 -13.53437 137.15805 -200 45 -200 45
2800000000 -200 45 -13.620487 -89.397438 -200 45 -200 45
2810000000 -200 45 -13.770362 43.029514 -200 45 -200 45
2820000000 -200 45 -13.854983 176.45041 -200 45 -200 45
2830000000 -200 45 -13.952443 -49.801739 -200 45 -200 45
2840000000 -200 45 -13.989085 84.775139 -200 45 -200 45
2850000000 -200 45 -14.029457 -141.81334 -200 45 -200 45
2860000000 -200 45 -13.976804 -8.4314442 -200 45 -200 45
2870000000 -200 45 -13.868064 124.35746 -200 45 -200 45
2880000000 -200 45 -13.679938 -103.17602 -200 45 -200 45
2890000000 -200 45 -13.667123 28.379389 -200 45 -200 45
2900000000 -200 45 -13.796247 160.79956 -200 45 -200 45
2910000000 -200 45 -13.858439 -66.883942 -200 45 -200 45
2920000000 -200 45 -13.811604 65.455063 -200 45 -200 45
2930000000 -200 45 -13.887764 -162.08252 -200 45 -200 45
2940000000 -200 45 -13.931949 -28.493715 -200 45 -200 45
2950000000 -200 45 -13.949414 103.82909 -200 45 -200 45
2960000000 -200 45 -14.049191 -124.18881 -200 45 -200 45
2970000000 -200 45 -14.161971 8.3385401 -200 45 -200 45
2980000000 -200 45 -14.281096 141.36501 -200 45 -200 45
2990000000 -200 45 -14.413056 -85.962982 -200 45 -200 45
3000000000 -200 45 -14.53256 46.251572 -200 45 -200 45
3010000000 -200 45 -14.816964 179.50406 -200 45 -200 45
3020000000 -200 45 -14.885184 -46.969997 -200 45 -200 45
3030000000 -200 45 -15.085864 85.664803 -200 45 -200 45
3040000000 -200 45 -15.226608 -140.02376 -200 45 -200 45
3050000000 -200 45 -15.196956 -6.6142445 -200 45 -200 45
3060000000 -200 45 -15.230418 125.52345 -200 45 -200 45
3070000000 -200 45 -15.260201 -101.77751 -200 45 -200 45
3080000000 -200 45 -15.31021 30.681934 -200 45 -200 45
3090000000 -200 45 -15.525918 163.68633 -200 45 -200 45
3100000000 -200 45 -15.611217 -62.396626 -200 45 -200 45
3110000000 -200 45 -15.63892 71.079727 -200 45 -200 45
3120000000 -200 45 -15.654003 -154.50833 -200 45 -200 45
3130000000 -200 45 -15.481595 -20.852743 -200 45 -200 45
3140000000 -200 45 -15.386431 111.33327 -200 45 -200 45
3150000000 -200 45 -15.461305 -116.08662 -200 45 -200 45
3160000000 -200 45 -15.562466 16.752295 -200 45 -200 45
3170000000 -200 45 -15.579944 150.47772 -200 45 -200 45
3180000000 -200 45 -15.429059 -77.150322 -200 45 -200 45
3190000000 -200 45 -15.485173 55.11245 -200 45 -200 45
3200000000 -200 45 -15.390576 -172.82533 -200 45 -200 45
3210000000 -200 45 -15.350595 -41.634441 -200 45 -200 45
3220000000 -200 45 -15.404846 88.989433 -200 45 -200 45
3230000000 -200 45 -15.766358 -138.76521 -200 45 -200 45
3240000000 -200 45 -15.854615 -6.12779 -200 45 -200 45
3250000000 -200 45 -15.933798 126.21143 -200 45 -200 45
3260000000 -200 45 -16.01058 -101.57464 -200 45 -200 45
3270000000 -200 45 -16.346739 30.473566 -200 45 -200 45
3280000000 -200 45 -16.672455 164.03358 -200 45 -200 45
3290000000 -200 45 -16.86138 -61.922283 -200 45 -200 45
3300000000 -200 45 -16.900318 71.716766 -200 45 -200 45
3310000000 -200 45 -17.006645 -155.17273 -200 45 -200 45
3320000000 -200 45 -17.130655 -21.697744 -200 45 -200 45
3330000000 -200 45 -17.216747 111.90294 -200 45 -200 45
3340000000 -200 45 -17.361586 -115.30548 -200 45 -200 45
3350000000 -200 45 -17.526394 18.478031 -200 45 -200 45
3360000000 -200 45 -17.54479 152.95981 -200 45 -200 45
3370000000 -200 45 -17.46414 -72.419861 -200 45 -200 45
3380000000 -200 45 -17.308489 60.080044 -200 45 -200 45
3390000000 -200 45 -17.372717 -167.72716 -200 45 -200 45
3400000000 -200 45 -17.401716 -34.608852 -200 45 -200 45
3410000000 -200 45 -17.425686 98.742874 -200 45 -200 45
3420000000 -200 45 -17.481604 -128.7307 -200 45 -200 45
3430000000 -200 45 -17.632744 4.8153281 -200 45 -200 45
3440000000 -200 45 -17.578636 138.58606 -200 45 -200 45
3450000000 -200 45 -17.499449 -88.284256 -200 45 -200 45
3460000000 -200 45 -17.350212 44.123676 -200 45 -200 45
3470000000 -200 45 -17.352789 175.92365 -200 45 -200 45
3480000000 -200 45 -17.361574 -52.369843 -200 45 -200 45
3490000000 -200 45 -17.475565 78.556435 -200 45 -200 45
3500000000 -200 45 -17.687532 -149.36769 -200 45 -200 45
3510000000 -200 45 -17.913269 -17.036961 -200 45 -200 45
3520000000 -200 45 -18.228052 115.8602 -200 45 -200 45
3530000000 -200 45 -18.301722 -110.99796 -200 45 -200 45
3540000000 -200 45 -18.383492 21.648869 -200 45 -200 45
3550000000 -200 45 -18.538927 155.06252 -200 45 -200 45
3560000000 -200 45 -18.610353 -72.773788 -200 45 -200 45
3570000000 -200 45 -18.833536 59.046951 -200 45 -200 45
3580000000 -200 45 -19.118364 -168.60927 -200 45 -200 45
3590000000 -200 45 -19.44602 -34.984146 -200 45 -200 45
3600000000 -200 45 -19.710295 98.593567 -200 45 -200 45
3610000000 -200 45 -20.006041 -127.18434 -200 45 -200 45
3620000000 -200 45 -20.089718 7.0031624 -200 45 -200 45
3630000000 -200 45 -20.159021 140.70657 -200 45 -200 45
3640000000 -200 45 -20.11005 -85.167725 -200 45 -200 45
3650000000 -200 45 -20.0856 47.782127 -200 45 -200 45
3660000000 -200 45 -20.186548 179.74261 -200 45 -200 45
3670000000 -200 45 -20.438564 -48.046741 -200 45 -200 45
3680000000 -200 45 -20.606449 85.986229 -200 45 -200 45
3690000000 -200 45 -20.757725 -139.91634 -200 45 -200 45
3700000000 -200 45 -20.890795 -6.2724018 -200 45 -200 45
3710000000 -200 45 -20.919313 126.66749 -200 45 -200 45
3720000000 -200 45 -21.006189 -100.73914 -200 45 -200 45
3730000000 -200 45 -21.205877 32.986679 -200 45 -200 45
3740000000 -200 45 -21.354027 167.10458 -200 45 -200 45
3750000000 -200 45 -21.385017 -59.821468 -200 45 -200 45
3760000000 -200 45 -21.538254 72.554314 -200 45 -200 45
3770000000 -200 45 -21.76972 -154.17285 -200 45 -200 45
3780000000 -200 45 -21.933893 -20.169886 -200 45 -200 45
3790000000 -200 45 -22.107626 114.15157 -200 45 -200 45
3800000000 -200 45 -22.273596 -112.27853 -200 45 -200 45
3810000000 -200 45 -22.472248 21.831388 -200 45 -200 45
3820000000 -200 45 -22.324852 156.8963 -200 45 -200 45
3830000000 -200 45 -22.287769 -70.059067 -200 45 -200 45
3840000000 -200 45 -22.556347 63.621422 -200 45 -200 45
3850000000 -200 45 -22.637054 -162.21881 -200 45 -200 45
